Sample in Buffer,Sample in Window,TRIGGER,system_i/Bic_top_0/inst/writeRowCount[11:0],system_i/Bic_top_0/inst/fillCount[2:0],system_i/Bic_top_0/inst/readData00[7:0],system_i/Bic_top_0/inst/yPixLowNext[11:0],system_i/Bic_top_0/inst/xPixLow[11:0],system_i/Bic_top_0/inst/yPixLow[11:0],system_i/Bic_top_0/inst/readData11[7:0],system_i/Bic_top_0/inst/readData10[7:0],system_i/Bic_top_0/inst/writeColCount[11:0],system_i/Bic_top_0/inst/readData01[7:0],system_i/Bic_top_0/inst/s_axis_tdata[7:0],system_i/Bic_top_0/inst/writeState[1:0],system_i/Bic_top_0/inst/outputColumn[11:0],system_i/Bic_top_0/inst/writeNextValidLine[11:0],system_i/Bic_top_0/inst/m_axis_tdata[7:0],system_i/Bic_top_0/inst/advanceRead1,system_i/Bic_top_0/inst/advanceRead2,system_i/Bic_top_0/inst/advanceWrite,system_i/Bic_top_0/inst/allDataWritten,system_i/Bic_top_0/inst/discardInput,system_i/Bic_top_0/inst/enableNextDin,system_i/Bic_top_0/inst/forceRead,system_i/Bic_top_0/inst/i_vid_de,system_i/Bic_top_0/inst/i_vout_read,system_i/Bic_top_0/inst/m_axis_tready,system_i/Bic_top_0/inst/m_axis_tvalid,system_i/Bic_top_0/inst/o_vid_fifo_read,system_i/Bic_top_0/inst/readState,system_i/Bic_top_0/inst/s_axis_tlast,system_i/Bic_top_0/inst/s_axis_tready,system_i/Bic_top_0/inst/s_axis_tvalid
Radix - UNSIGNED,UNSIGNED,UNSIGNED,HEX,HEX,HEX,HEX,HEX,HEX,HEX,HEX,HEX,HEX,HEX,HEX,HEX,HEX,HEX,HEX,HEX,HEX,HEX,HEX,HEX,HEX,HEX,HEX,HEX,HEX,HEX,HEX,HEX,HEX,HEX
0,0,0,000,0,00,002,000,000,00,00,000,00,00,2,000,002,00,0,0,0,0,0,1,0,0,1,1,0,1,0,0,1,0
1,1,0,000,0,00,002,000,000,00,00,000,00,00,2,000,002,00,0,0,0,0,0,1,0,0,1,1,0,1,0,0,1,0
2,2,0,000,0,00,002,000,000,00,00,000,00,00,2,000,002,00,0,0,0,0,0,1,0,0,1,1,0,1,0,0,1,0
3,3,0,000,0,00,002,000,000,00,00,000,00,00,2,000,002,00,0,0,0,0,0,1,0,0,1,1,0,1,0,0,1,0
4,4,0,000,0,00,002,000,000,00,00,000,00,00,2,000,002,00,0,0,0,0,0,1,0,0,1,1,0,1,0,0,1,0
5,5,0,000,0,00,002,000,000,00,00,000,00,00,2,000,002,00,0,0,0,0,0,1,0,0,1,1,0,1,0,0,1,0
6,6,0,000,0,00,002,000,000,00,00,000,00,00,2,000,002,00,0,0,0,0,0,1,0,0,1,1,0,1,0,0,1,0
7,7,0,000,0,00,002,000,000,00,00,000,00,00,2,000,002,00,0,0,0,0,0,1,0,0,1,1,0,1,0,0,1,0
8,8,0,000,0,00,002,000,000,00,00,000,00,00,2,000,002,00,0,0,0,0,0,1,0,0,1,1,0,1,0,0,1,0
9,9,0,000,0,00,002,000,000,00,00,000,00,00,2,000,002,00,0,0,0,0,0,1,0,0,1,1,0,1,0,0,1,0
10,10,0,000,0,00,002,000,000,00,00,000,00,00,2,000,002,00,0,0,0,0,0,1,0,0,1,1,0,1,0,0,1,0
11,11,0,000,0,00,002,000,000,00,00,000,00,00,2,000,002,00,0,0,0,0,0,1,0,0,1,1,0,1,0,0,1,0
12,12,0,000,0,00,002,000,000,00,00,000,00,00,2,000,002,00,0,0,0,0,0,1,0,0,1,1,0,1,0,0,1,0
13,13,0,000,0,00,002,000,000,00,00,000,00,00,2,000,002,00,0,0,0,0,0,1,0,0,1,1,0,1,0,0,1,0
14,14,0,000,0,00,002,000,000,00,00,000,00,00,2,000,002,00,0,0,0,0,0,1,0,0,1,1,0,1,0,0,1,0
15,15,0,000,0,00,002,000,000,00,00,000,00,00,2,000,002,00,0,0,0,0,0,1,0,0,1,1,0,1,0,0,1,0
16,16,0,000,0,00,002,000,000,00,00,000,00,00,2,000,002,00,0,0,0,0,0,1,0,0,1,1,0,1,0,0,1,0
17,17,0,000,0,00,002,000,000,00,00,000,00,00,2,000,002,00,0,0,0,0,0,1,0,0,1,1,0,1,0,0,1,0
18,18,0,000,0,00,002,000,000,00,00,000,00,00,2,000,002,00,0,0,0,0,0,1,0,0,1,1,0,1,0,0,1,0
19,19,0,000,0,00,002,000,000,00,00,000,00,00,2,000,002,00,0,0,0,0,0,1,0,0,1,1,0,1,0,0,1,0
20,20,0,000,0,00,002,000,000,00,00,000,00,00,2,000,002,00,0,0,0,0,0,1,0,0,1,1,0,1,0,0,1,0
21,21,0,000,0,00,002,000,000,00,00,000,00,00,2,000,002,00,0,0,0,0,0,1,0,0,1,1,0,1,0,0,1,0
22,22,0,000,0,00,002,000,000,00,00,000,00,00,2,000,002,00,0,0,0,0,0,1,0,0,1,1,0,1,0,0,1,0
23,23,0,000,0,00,002,000,000,00,00,000,00,00,2,000,002,00,0,0,0,0,0,1,0,0,1,1,0,1,0,0,1,0
24,24,0,000,0,00,002,000,000,00,00,000,00,00,2,000,002,00,0,0,0,0,0,1,0,0,1,1,0,1,0,0,1,0
25,25,0,000,0,00,002,000,000,00,00,000,00,00,2,000,002,00,0,0,0,0,0,1,0,0,1,1,0,1,0,0,1,0
26,26,0,000,0,00,002,000,000,00,00,000,00,00,2,000,002,00,0,0,0,0,0,1,0,0,1,1,0,1,0,0,1,0
27,27,0,000,0,00,002,000,000,00,00,000,00,00,2,000,002,00,0,0,0,0,0,1,0,0,1,1,0,1,0,0,1,0
28,28,0,000,0,00,002,000,000,00,00,000,00,00,2,000,002,00,0,0,0,0,0,1,0,0,1,1,0,1,0,0,1,0
29,29,0,000,0,00,002,000,000,00,00,000,00,00,2,000,002,00,0,0,0,0,0,1,0,0,1,1,0,1,0,0,1,0
30,30,0,000,0,00,002,000,000,00,00,000,00,00,2,000,002,00,0,0,0,0,0,1,0,0,1,1,0,1,0,0,1,0
31,31,0,000,0,00,002,000,000,00,00,000,00,00,2,000,002,00,0,0,0,0,0,1,0,0,1,1,0,1,0,0,1,0
32,32,0,000,0,00,002,000,000,00,00,000,00,00,2,000,002,00,0,0,0,0,0,1,0,0,1,1,0,1,0,0,1,0
33,33,0,000,0,00,002,000,000,00,00,000,00,00,2,000,002,00,0,0,0,0,0,1,0,0,1,1,0,1,0,0,1,0
34,34,0,000,0,00,002,000,000,00,00,000,00,00,2,000,002,00,0,0,0,0,0,1,0,0,1,1,0,1,0,0,1,0
35,35,0,000,0,00,002,000,000,00,00,000,00,00,2,000,002,00,0,0,0,0,0,1,0,0,1,1,0,1,0,0,1,0
36,36,0,000,0,00,002,000,000,00,00,000,00,00,2,000,002,00,0,0,0,0,0,1,0,0,1,1,0,1,0,0,1,0
37,37,0,000,0,00,002,000,000,00,00,000,00,00,2,000,002,00,0,0,0,0,0,1,0,0,1,1,0,1,0,0,1,0
38,38,0,000,0,00,002,000,000,00,00,000,00,00,2,000,002,00,0,0,0,0,0,1,0,0,1,1,0,1,0,0,1,0
39,39,0,000,0,00,002,000,000,00,00,000,00,00,2,000,002,00,0,0,0,0,0,1,0,0,1,1,0,1,0,0,1,0
40,40,0,000,0,00,002,000,000,00,00,000,00,00,2,000,002,00,0,0,0,0,0,1,0,0,1,1,0,1,0,0,1,0
41,41,0,000,0,00,002,000,000,00,00,000,00,00,2,000,002,00,0,0,0,0,0,1,0,0,1,1,0,1,0,0,1,0
42,42,0,000,0,00,002,000,000,00,00,000,00,00,2,000,002,00,0,0,0,0,0,1,0,0,1,1,0,1,0,0,1,0
43,43,0,000,0,00,002,000,000,00,00,000,00,00,2,000,002,00,0,0,0,0,0,1,0,0,1,1,0,1,0,0,1,0
44,44,0,000,0,00,002,000,000,00,00,000,00,00,2,000,002,00,0,0,0,0,0,1,0,0,1,1,0,1,0,0,1,0
45,45,0,000,0,00,002,000,000,00,00,000,00,00,2,000,002,00,0,0,0,0,0,1,0,0,1,1,0,1,0,0,1,0
46,46,0,000,0,00,002,000,000,00,00,000,00,00,2,000,002,00,0,0,0,0,0,1,0,0,1,1,0,1,0,0,1,0
47,47,0,000,0,00,002,000,000,00,00,000,00,00,2,000,002,00,0,0,0,0,0,1,0,0,1,1,0,1,0,0,1,0
48,48,0,000,0,00,002,000,000,00,00,000,00,00,2,000,002,00,0,0,0,0,0,1,0,0,1,1,0,1,0,0,1,0
49,49,0,000,0,00,002,000,000,00,00,000,00,00,2,000,002,00,0,0,0,0,0,1,0,0,1,1,0,1,0,0,1,0
50,50,0,000,0,00,002,000,000,00,00,000,00,00,2,000,002,00,0,0,0,0,0,1,0,0,1,1,0,1,0,0,1,0
51,51,0,000,0,00,002,000,000,00,00,000,00,00,2,000,002,00,0,0,0,0,0,1,0,0,1,1,0,1,0,0,1,0
52,52,0,000,0,00,002,000,000,00,00,000,00,00,2,000,002,00,0,0,0,0,0,1,0,0,1,1,0,1,0,0,1,0
53,53,0,000,0,00,002,000,000,00,00,000,00,00,2,000,002,00,0,0,0,0,0,1,0,0,1,1,0,1,0,0,1,0
54,54,0,000,0,00,002,000,000,00,00,000,00,00,2,000,002,00,0,0,0,0,0,1,0,0,1,1,0,1,0,0,1,0
55,55,0,000,0,00,002,000,000,00,00,000,00,00,2,000,002,00,0,0,0,0,0,1,0,0,1,1,0,1,0,0,1,0
56,56,0,000,0,00,002,000,000,00,00,000,00,00,2,000,002,00,0,0,0,0,0,1,0,0,1,1,0,1,0,0,1,0
57,57,0,000,0,00,002,000,000,00,00,000,00,00,2,000,002,00,0,0,0,0,0,1,0,0,1,1,0,1,0,0,1,0
58,58,0,000,0,00,002,000,000,00,00,000,00,00,2,000,002,00,0,0,0,0,0,1,0,0,1,1,0,1,0,0,1,0
59,59,0,000,0,00,002,000,000,00,00,000,00,00,2,000,002,00,0,0,0,0,0,1,0,0,1,1,0,1,0,0,1,0
60,60,0,000,0,00,002,000,000,00,00,000,00,00,2,000,002,00,0,0,0,0,0,1,0,0,1,1,0,1,0,0,1,0
61,61,0,000,0,00,002,000,000,00,00,000,00,00,2,000,002,00,0,0,0,0,0,1,0,0,1,1,0,1,0,0,1,0
62,62,0,000,0,00,002,000,000,00,00,000,00,00,2,000,002,00,0,0,0,0,0,1,0,0,1,1,0,1,0,0,1,0
63,63,0,000,0,00,002,000,000,00,00,000,00,00,2,000,002,00,0,0,0,0,0,1,0,0,1,1,0,1,0,0,1,0
64,64,0,000,0,00,002,000,000,00,00,000,00,00,2,000,002,00,0,0,0,0,0,1,0,0,1,1,0,1,0,0,1,0
65,65,0,000,0,00,002,000,000,00,00,000,00,00,2,000,002,00,0,0,0,0,0,1,0,0,1,1,0,1,0,0,1,0
66,66,0,000,0,00,002,000,000,00,00,000,00,00,2,000,002,00,0,0,0,0,0,1,0,0,1,1,0,1,0,0,1,0
67,67,0,000,0,00,002,000,000,00,00,000,00,00,2,000,002,00,0,0,0,0,0,1,0,0,1,1,0,1,0,0,1,0
68,68,0,000,0,00,002,000,000,00,00,000,00,00,2,000,002,00,0,0,0,0,0,1,0,0,1,1,0,1,0,0,1,0
69,69,0,000,0,00,002,000,000,00,00,000,00,00,2,000,002,00,0,0,0,0,0,1,0,0,1,1,0,1,0,0,1,0
70,70,0,000,0,00,002,000,000,00,00,000,00,00,2,000,002,00,0,0,0,0,0,1,0,0,1,1,0,1,0,0,1,0
71,71,0,000,0,00,002,000,000,00,00,000,00,00,2,000,002,00,0,0,0,0,0,1,0,0,1,1,0,1,0,0,1,0
72,72,0,000,0,00,002,000,000,00,00,000,00,00,2,000,002,00,0,0,0,0,0,1,0,0,1,1,0,1,0,0,1,0
73,73,0,000,0,00,002,000,000,00,00,000,00,00,2,000,002,00,0,0,0,0,0,1,0,0,1,1,0,1,0,0,1,0
74,74,0,000,0,00,002,000,000,00,00,000,00,00,2,000,002,00,0,0,0,0,0,1,0,0,1,1,0,1,0,0,1,0
75,75,0,000,0,00,002,000,000,00,00,000,00,00,2,000,002,00,0,0,0,0,0,1,0,0,1,1,0,1,0,0,1,0
76,76,0,000,0,00,002,000,000,00,00,000,00,00,2,000,002,00,0,0,0,0,0,1,0,0,1,1,0,1,0,0,1,0
77,77,0,000,0,00,002,000,000,00,00,000,00,00,2,000,002,00,0,0,0,0,0,1,0,0,1,1,0,1,0,0,1,0
78,78,0,000,0,00,002,000,000,00,00,000,00,00,2,000,002,00,0,0,0,0,0,1,0,0,1,1,0,1,0,0,1,0
79,79,0,000,0,00,002,000,000,00,00,000,00,00,2,000,002,00,0,0,0,0,0,1,0,0,1,1,0,1,0,0,1,0
80,80,0,000,0,00,002,000,000,00,00,000,00,00,2,000,002,00,0,0,0,0,0,1,0,0,1,1,0,1,0,0,1,0
81,81,0,000,0,00,002,000,000,00,00,000,00,00,2,000,002,00,0,0,0,0,0,1,0,0,1,1,0,1,0,0,1,0
82,82,0,000,0,00,002,000,000,00,00,000,00,00,2,000,002,00,0,0,0,0,0,1,0,0,1,1,0,1,0,0,1,0
83,83,0,000,0,00,002,000,000,00,00,000,00,00,2,000,002,00,0,0,0,0,0,1,0,0,1,1,0,1,0,0,1,0
84,84,0,000,0,00,002,000,000,00,00,000,00,00,2,000,002,00,0,0,0,0,0,1,0,0,1,1,0,1,0,0,1,0
85,85,0,000,0,00,002,000,000,00,00,000,00,00,2,000,002,00,0,0,0,0,0,1,0,0,1,1,0,1,0,0,1,0
86,86,0,000,0,00,002,000,000,00,00,000,00,00,2,000,002,00,0,0,0,0,0,1,0,0,1,1,0,1,0,0,1,0
87,87,0,000,0,00,002,000,000,00,00,000,00,00,2,000,002,00,0,0,0,0,0,1,0,0,1,1,0,1,0,0,1,0
88,88,0,000,0,00,002,000,000,00,00,000,00,00,2,000,002,00,0,0,0,0,0,1,0,0,1,1,0,1,0,0,1,0
89,89,0,000,0,00,002,000,000,00,00,000,00,00,2,000,002,00,0,0,0,0,0,1,0,0,1,1,0,1,0,0,1,0
90,90,0,000,0,00,002,000,000,00,00,000,00,00,2,000,002,00,0,0,0,0,0,1,0,0,1,1,0,1,0,0,1,0
91,91,0,000,0,00,002,000,000,00,00,000,00,00,2,000,002,00,0,0,0,0,0,1,0,0,1,1,0,1,0,0,1,0
92,92,0,000,0,00,002,000,000,00,00,000,00,00,2,000,002,00,0,0,0,0,0,1,0,0,1,1,0,1,0,0,1,0
93,93,0,000,0,00,002,000,000,00,00,000,00,00,2,000,002,00,0,0,0,0,0,1,0,0,1,1,0,1,0,0,1,0
94,94,0,000,0,00,002,000,000,00,00,000,00,00,2,000,002,00,0,0,0,0,0,1,0,0,1,1,0,1,0,0,1,0
95,95,0,000,0,00,002,000,000,00,00,000,00,00,2,000,002,00,0,0,0,0,0,1,0,0,1,1,0,1,0,0,1,0
96,96,0,000,0,00,002,000,000,00,00,000,00,00,2,000,002,00,0,0,0,0,0,1,0,0,1,1,0,1,0,0,1,0
97,97,0,000,0,00,002,000,000,00,00,000,00,00,2,000,002,00,0,0,0,0,0,1,0,0,1,1,0,1,0,0,1,0
98,98,0,000,0,00,002,000,000,00,00,000,00,00,2,000,002,00,0,0,0,0,0,1,0,0,1,1,0,1,0,0,1,0
99,99,0,000,0,00,002,000,000,00,00,000,00,00,2,000,002,00,0,0,0,0,0,1,0,0,1,1,0,1,0,0,1,0
100,100,0,000,0,00,002,000,000,00,00,000,00,00,2,000,002,00,0,0,0,0,0,1,0,0,1,1,0,1,0,0,1,0
101,101,0,000,0,00,002,000,000,00,00,000,00,00,2,000,002,00,0,0,0,0,0,1,0,0,1,1,0,1,0,0,1,0
102,102,0,000,0,00,002,000,000,00,00,000,00,00,2,000,002,00,0,0,0,0,0,1,0,0,1,1,0,1,0,0,1,0
103,103,0,000,0,00,002,000,000,00,00,000,00,00,2,000,002,00,0,0,0,0,0,1,0,0,1,1,0,1,0,0,1,0
104,104,0,000,0,00,002,000,000,00,00,000,00,00,2,000,002,00,0,0,0,0,0,1,0,0,1,1,0,1,0,0,1,0
105,105,0,000,0,00,002,000,000,00,00,000,00,00,2,000,002,00,0,0,0,0,0,1,0,0,1,1,0,1,0,0,1,0
106,106,0,000,0,00,002,000,000,00,00,000,00,00,2,000,002,00,0,0,0,0,0,1,0,0,1,1,0,1,0,0,1,0
107,107,0,000,0,00,002,000,000,00,00,000,00,00,2,000,002,00,0,0,0,0,0,1,0,0,1,1,0,1,0,0,1,0
108,108,0,000,0,00,002,000,000,00,00,000,00,00,2,000,002,00,0,0,0,0,0,1,0,0,1,1,0,1,0,0,1,0
109,109,0,000,0,00,002,000,000,00,00,000,00,00,2,000,002,00,0,0,0,0,0,1,0,0,1,1,0,1,0,0,1,0
110,110,0,000,0,00,002,000,000,00,00,000,00,00,2,000,002,00,0,0,0,0,0,1,0,0,1,1,0,1,0,0,1,0
111,111,0,000,0,00,002,000,000,00,00,000,00,00,2,000,002,00,0,0,0,0,0,1,0,0,1,1,0,1,0,0,1,0
112,112,0,000,0,00,002,000,000,00,00,000,00,00,2,000,002,00,0,0,0,0,0,1,0,0,1,1,0,1,0,0,1,0
113,113,0,000,0,00,002,000,000,00,00,000,00,00,2,000,002,00,0,0,0,0,0,1,0,0,1,1,0,1,0,0,1,0
114,114,0,000,0,00,002,000,000,00,00,000,00,00,2,000,002,00,0,0,0,0,0,1,0,0,1,1,0,1,0,0,1,0
115,115,0,000,0,00,002,000,000,00,00,000,00,00,2,000,002,00,0,0,0,0,0,1,0,0,1,1,0,1,0,0,1,0
116,116,0,000,0,00,002,000,000,00,00,000,00,00,2,000,002,00,0,0,0,0,0,1,0,0,1,1,0,1,0,0,1,0
117,117,0,000,0,00,002,000,000,00,00,000,00,00,2,000,002,00,0,0,0,0,0,1,0,0,1,1,0,1,0,0,1,0
118,118,0,000,0,00,002,000,000,00,00,000,00,00,2,000,002,00,0,0,0,0,0,1,0,0,1,1,0,1,0,0,1,0
119,119,0,000,0,00,002,000,000,00,00,000,00,00,2,000,002,00,0,0,0,0,0,1,0,0,1,1,0,1,0,0,1,0
120,120,0,000,0,00,002,000,000,00,00,000,00,00,2,000,002,00,0,0,0,0,0,1,0,0,1,1,0,1,0,0,1,0
121,121,0,000,0,00,002,000,000,00,00,000,00,00,2,000,002,00,0,0,0,0,0,1,0,0,1,1,0,1,0,0,1,0
122,122,0,000,0,00,002,000,000,00,00,000,00,00,2,000,002,00,0,0,0,0,0,1,0,0,1,1,0,1,0,0,1,0
123,123,0,000,0,00,002,000,000,00,00,000,00,00,2,000,002,00,0,0,0,0,0,1,0,0,1,1,0,1,0,0,1,0
124,124,0,000,0,00,002,000,000,00,00,000,00,00,2,000,002,00,0,0,0,0,0,1,0,0,1,1,0,1,0,0,1,0
125,125,0,000,0,00,002,000,000,00,00,000,00,00,2,000,002,00,0,0,0,0,0,1,0,0,1,1,0,1,0,0,1,0
126,126,0,000,0,00,002,000,000,00,00,000,00,00,2,000,002,00,0,0,0,0,0,1,0,0,1,1,0,1,0,0,1,0
127,127,0,000,0,00,002,000,000,00,00,000,00,00,2,000,002,00,0,0,0,0,0,1,0,0,1,1,0,1,0,0,1,0
128,128,0,000,0,00,002,000,000,00,00,000,00,00,2,000,002,00,0,0,0,0,0,1,0,0,1,1,0,1,0,0,1,0
129,129,0,000,0,00,002,000,000,00,00,000,00,00,2,000,002,00,0,0,0,0,0,1,0,0,1,1,0,1,0,0,1,0
130,130,0,000,0,00,002,000,000,00,00,000,00,00,2,000,002,00,0,0,0,0,0,1,0,0,1,1,0,1,0,0,1,0
131,131,0,000,0,00,002,000,000,00,00,000,00,00,2,000,002,00,0,0,0,0,0,1,0,0,1,1,0,1,0,0,1,0
132,132,0,000,0,00,002,000,000,00,00,000,00,00,2,000,002,00,0,0,0,0,0,1,0,0,1,1,0,1,0,0,1,0
133,133,0,000,0,00,002,000,000,00,00,000,00,00,2,000,002,00,0,0,0,0,0,1,0,0,1,1,0,1,0,0,1,0
134,134,0,000,0,00,002,000,000,00,00,000,00,00,2,000,002,00,0,0,0,0,0,1,0,0,1,1,0,1,0,0,1,0
135,135,0,000,0,00,002,000,000,00,00,000,00,00,2,000,002,00,0,0,0,0,0,1,0,0,1,1,0,1,0,0,1,0
136,136,0,000,0,00,002,000,000,00,00,000,00,00,2,000,002,00,0,0,0,0,0,1,0,0,1,1,0,1,0,0,1,0
137,137,0,000,0,00,002,000,000,00,00,000,00,00,2,000,002,00,0,0,0,0,0,1,0,0,1,1,0,1,0,0,1,0
138,138,0,000,0,00,002,000,000,00,00,000,00,00,2,000,002,00,0,0,0,0,0,1,0,0,1,1,0,1,0,0,1,0
139,139,0,000,0,00,002,000,000,00,00,000,00,00,2,000,002,00,0,0,0,0,0,1,0,0,1,1,0,1,0,0,1,0
140,140,0,000,0,00,002,000,000,00,00,000,00,00,2,000,002,00,0,0,0,0,0,1,0,0,1,1,0,1,0,0,1,0
141,141,0,000,0,00,002,000,000,00,00,000,00,00,2,000,002,00,0,0,0,0,0,1,0,0,1,1,0,1,0,0,1,0
142,142,0,000,0,00,002,000,000,00,00,000,00,00,2,000,002,00,0,0,0,0,0,1,0,0,1,1,0,1,0,0,1,0
143,143,0,000,0,00,002,000,000,00,00,000,00,00,2,000,002,00,0,0,0,0,0,1,0,0,1,1,0,1,0,0,1,0
144,144,0,000,0,00,002,000,000,00,00,000,00,00,2,000,002,00,0,0,0,0,0,1,0,0,1,1,0,1,0,0,1,0
145,145,0,000,0,00,002,000,000,00,00,000,00,00,2,000,002,00,0,0,0,0,0,1,0,0,1,1,0,1,0,0,1,0
146,146,0,000,0,00,002,000,000,00,00,000,00,00,2,000,002,00,0,0,0,0,0,1,0,0,1,1,0,1,0,0,1,0
147,147,0,000,0,00,002,000,000,00,00,000,00,00,2,000,002,00,0,0,0,0,0,1,0,0,1,1,0,1,0,0,1,0
148,148,0,000,0,00,002,000,000,00,00,000,00,00,2,000,002,00,0,0,0,0,0,1,0,0,1,1,0,1,0,0,1,0
149,149,0,000,0,00,002,000,000,00,00,000,00,00,2,000,002,00,0,0,0,0,0,1,0,0,1,1,0,1,0,0,1,0
150,150,0,000,0,00,002,000,000,00,00,000,00,00,2,000,002,00,0,0,0,0,0,1,0,0,1,1,0,1,0,0,1,0
151,151,0,000,0,00,002,000,000,00,00,000,00,00,2,000,002,00,0,0,0,0,0,1,0,0,1,1,0,1,0,0,1,0
152,152,0,000,0,00,002,000,000,00,00,000,00,00,2,000,002,00,0,0,0,0,0,1,0,0,1,1,0,1,0,0,1,0
153,153,0,000,0,00,002,000,000,00,00,000,00,00,2,000,002,00,0,0,0,0,0,1,0,0,1,1,0,1,0,0,1,0
154,154,0,000,0,00,002,000,000,00,00,000,00,00,2,000,002,00,0,0,0,0,0,1,0,0,1,1,0,1,0,0,1,0
155,155,0,000,0,00,002,000,000,00,00,000,00,64,2,000,002,00,0,0,0,0,0,1,0,1,1,1,0,1,0,0,1,1
156,156,0,000,0,64,002,000,000,00,00,001,00,5f,2,000,002,00,0,0,0,0,0,1,0,1,1,1,0,1,0,0,1,1
157,157,0,000,0,5f,002,000,000,00,00,002,46,c4,2,000,002,00,0,0,0,0,0,1,0,1,1,1,0,1,0,0,1,1
158,158,0,000,0,c4,002,000,000,00,00,003,5f,6c,2,000,002,00,0,0,0,0,0,1,0,1,1,1,0,1,0,0,1,1
159,159,0,000,0,6c,002,000,000,00,00,004,5f,65,2,000,002,00,0,0,0,0,0,1,0,1,1,1,0,1,0,0,1,1
160,160,0,000,0,65,002,000,000,00,00,005,5f,c4,2,000,002,00,0,0,0,0,0,1,0,1,1,1,0,1,0,0,1,1
161,161,0,000,0,c4,002,000,000,00,00,006,5f,5b,2,000,002,00,0,0,0,0,0,1,0,1,1,1,0,1,0,0,1,1
162,162,0,000,0,5b,002,000,000,00,00,007,5f,5f,2,000,002,00,0,0,0,0,0,1,0,1,1,1,0,1,0,0,1,1
163,163,0,000,0,5f,002,000,000,00,00,008,5f,c0,2,000,002,00,0,0,0,0,0,1,0,1,1,1,0,1,0,0,1,1
164,164,0,000,0,c0,002,000,000,00,00,009,5f,65,2,000,002,00,0,0,0,0,0,1,0,1,1,1,0,1,0,0,1,1
165,165,0,000,0,65,002,000,000,00,00,00a,5f,61,2,000,002,00,0,0,0,0,0,1,0,1,1,1,0,1,0,0,1,1
166,166,0,000,0,61,002,000,000,00,00,00b,5f,c2,2,000,002,00,0,0,0,0,0,1,0,1,1,1,0,1,0,0,1,1
167,167,0,000,0,c2,002,000,000,00,00,00c,5f,5d,2,000,002,00,0,0,0,0,0,1,0,1,1,1,0,1,0,0,1,1
168,168,0,000,0,5d,002,000,000,00,00,00d,5f,5d,2,000,002,00,0,0,0,0,0,1,0,1,1,1,0,1,0,0,1,1
169,169,0,000,0,5d,002,000,000,00,00,00e,5f,c7,2,000,002,00,0,0,0,0,0,1,0,1,1,1,0,1,0,0,1,1
170,170,0,000,0,c7,002,000,000,00,00,00f,5f,59,2,000,002,00,0,0,0,0,0,1,0,1,1,1,0,1,0,0,1,1
171,171,0,000,0,59,002,000,000,00,00,010,5f,59,2,000,002,00,0,0,0,0,0,1,0,1,1,1,0,1,0,0,1,1
172,172,0,000,0,59,002,000,000,00,00,011,5f,c4,2,000,002,00,0,0,0,0,0,1,0,1,1,1,0,1,0,0,1,1
173,173,0,000,0,c4,002,000,000,00,00,012,5f,64,2,000,002,00,0,0,0,0,0,1,0,1,1,1,0,1,0,0,1,1
174,174,0,000,0,64,002,000,000,00,00,013,5f,65,2,000,002,00,0,0,0,0,0,1,0,1,1,1,0,1,0,0,1,1
175,175,0,000,0,65,002,000,000,00,00,014,5f,c4,2,000,002,00,0,0,0,0,0,1,0,1,1,1,0,1,0,0,1,1
176,176,0,000,0,c4,002,000,000,00,00,015,5f,60,2,000,002,00,0,0,0,0,0,1,0,1,1,1,0,1,0,0,1,1
177,177,0,000,0,60,002,000,000,00,00,016,5f,5f,2,000,002,00,0,0,0,0,0,1,0,1,1,1,0,1,0,0,1,1
178,178,0,000,0,5f,002,000,000,00,00,017,5f,c1,2,000,002,00,0,0,0,0,0,1,0,1,1,1,0,1,0,0,1,1
179,179,0,000,0,c1,002,000,000,00,00,018,5f,56,2,000,002,00,0,0,0,0,0,1,0,1,1,1,0,1,0,0,1,1
180,180,0,000,0,56,002,000,000,00,00,019,5f,61,2,000,002,00,0,0,0,0,0,1,0,1,1,1,0,1,0,0,1,1
181,181,0,000,0,61,002,000,000,00,00,01a,5f,c5,2,000,002,00,0,0,0,0,0,1,0,1,1,1,0,1,0,0,1,1
182,182,0,000,0,c5,002,000,000,00,00,01b,5f,69,2,000,002,00,0,0,0,0,0,1,0,1,1,1,0,1,0,0,1,1
183,183,0,000,0,69,002,000,000,00,00,01c,5f,61,2,000,002,00,0,0,0,0,0,1,0,1,1,1,0,1,0,0,1,1
184,184,0,000,0,61,002,000,000,00,00,01d,5f,c2,2,000,002,00,0,0,0,0,0,1,0,1,1,1,0,1,0,0,1,1
185,185,0,000,0,c2,002,000,000,00,00,01e,5f,5a,2,000,002,00,0,0,0,0,0,1,0,1,1,1,0,1,0,0,1,1
186,186,0,000,0,5a,002,000,000,00,00,01f,5f,58,2,000,002,00,0,0,0,0,0,1,0,1,1,1,0,1,0,0,1,1
187,187,0,000,0,58,002,000,000,00,00,020,5f,c0,2,000,002,00,0,0,0,0,0,1,0,1,1,1,0,1,0,0,1,1
188,188,0,000,0,c0,002,000,000,00,00,021,5f,60,2,000,002,00,0,0,0,0,0,1,0,1,1,1,0,1,0,0,1,1
189,189,0,000,0,60,002,000,000,00,00,022,5f,5e,2,000,002,00,0,0,0,0,0,1,0,1,1,1,0,1,0,0,1,1
190,190,0,000,0,5e,002,000,000,00,00,023,5f,be,2,000,002,00,0,0,0,0,0,1,0,1,1,1,0,1,0,0,1,1
191,191,0,000,0,be,002,000,000,00,00,024,5f,5d,2,000,002,00,0,0,0,0,0,1,0,1,1,1,0,1,0,0,1,1
192,192,0,000,0,5d,002,000,000,00,00,025,5f,52,2,000,002,00,0,0,0,0,0,1,0,1,1,1,0,1,0,0,1,1
193,193,0,000,0,52,002,000,000,00,00,026,5f,b9,2,000,002,00,0,0,0,0,0,1,0,1,1,1,0,1,0,0,1,1
194,194,0,000,0,b9,002,000,000,00,00,027,5f,5b,2,000,002,00,0,0,0,0,0,1,0,1,1,1,0,1,0,0,1,1
195,195,0,000,0,5b,002,000,000,00,00,028,5f,5b,2,000,002,00,0,0,0,0,0,1,0,1,1,1,0,1,0,0,1,1
196,196,0,000,0,5b,002,000,000,00,00,029,5f,bf,2,000,002,00,0,0,0,0,0,1,0,1,1,1,0,1,0,0,1,1
197,197,0,000,0,bf,002,000,000,00,00,02a,5f,58,2,000,002,00,0,0,0,0,0,1,0,1,1,1,0,1,0,0,1,1
198,198,0,000,0,58,002,000,000,00,00,02b,5f,54,2,000,002,00,0,0,0,0,0,1,0,1,1,1,0,1,0,0,1,1
199,199,0,000,0,54,002,000,000,00,00,02c,5f,bc,2,000,002,00,0,0,0,0,0,1,0,1,1,1,0,1,0,0,1,1
200,200,0,000,0,bc,002,000,000,00,00,02d,5f,60,2,000,002,00,0,0,0,0,0,1,0,1,1,1,0,1,0,0,1,1
201,201,0,000,0,60,002,000,000,00,00,02e,5f,58,2,000,002,00,0,0,0,0,0,1,0,1,1,1,0,1,0,0,1,1
202,202,0,000,0,58,002,000,000,00,00,02f,5f,bd,2,000,002,00,0,0,0,0,0,1,0,1,1,1,0,1,0,0,1,1
203,203,0,000,0,bd,002,000,000,00,00,030,5f,59,2,000,002,00,0,0,0,0,0,1,0,1,1,1,0,1,0,0,1,1
